Title: bjt characteristics
Date: Mon Mar  7 03:29:24  2022
Plotname: DC transfer characteristic
Flags: real
No. Variables: 4
No. Points: 41
Variables:
	0	v-sweep	voltage
	1	v(1)	voltage
	2	v(2)	voltage
	3	i(vce)	current
Values:
 0	0.000000000000000e+00
	6.976502270856136e-01
	0.000000000000000e+00
	9.874094317856286e-04

 1	1.000000000000000e-01
	7.913234008432487e-01
	1.000000000000000e-01
	-1.616431827489212e-02

 2	2.000000000000000e-01
	8.676307056429873e-01
	2.000000000000000e-01
	-7.122137730824452e-02

 3	3.000000000000000e-01
	9.231671168036597e-01
	3.000000000000000e-01
	-1.291434136716869e-01

 4	4.000000000000000e-01
	9.414161755420848e-01
	4.000000000000000e-01
	-1.501907195905261e-01

 5	5.000000000000000e-01
	9.424238160954821e-01
	5.000000000000000e-01
	-1.514132410902764e-01

 6	6.000000000000000e-01
	9.425224483113731e-01
	6.000000000000000e-01
	-1.515734014753165e-01

 7	7.000000000000000e-01
	9.426054186855074e-01
	7.000000000000000e-01
	-1.517138028122371e-01

 8	7.999999999999999e-01
	9.426907807655684e-01
	7.999999999999999e-01
	-1.518560689531312e-01

 9	8.999999999999999e-01
	9.427761345201172e-01
	8.999999999999999e-01
	-1.519983251647070e-01

 10	9.999999999999999e-01
	9.428614881516435e-01
	9.999999999999999e-01
	-1.521405812108982e-01

 11	1.100000000000000e+00
	9.429468417792422e-01
	1.100000000000000e+00
	-1.522828372524714e-01

 12	1.200000000000000e+00
	9.430321954068513e-01
	1.200000000000000e+00
	-1.524250932940650e-01

 13	1.300000000000000e+00
	9.431175490344381e-01
	1.300000000000000e+00
	-1.525673493356381e-01

 14	1.400000000000000e+00
	9.432029026620485e-01
	1.400000000000000e+00
	-1.527096053772441e-01

 15	1.500000000000000e+00
	9.432882562896303e-01
	1.500000000000000e+00
	-1.528518614188243e-01

 16	1.600000000000000e+00
	9.433736099172629e-01
	1.600000000000000e+00
	-1.529941174604676e-01

 17	1.700000000000000e+00
	9.434589635449476e-01
	1.700000000000000e+00
	-1.531363735021793e-01

 18	1.800000000000000e+00
	9.435443171724902e-01
	1.800000000000000e+00
	-1.532786295437321e-01

 19	1.900000000000001e+00
	9.436296708002325e-01
	1.900000000000001e+00
	-1.534208855855210e-01

 20	2.000000000000000e+00
	9.437150244278208e-01
	2.000000000000000e+00
	-1.535631416271368e-01

 21	2.100000000000001e+00
	9.438003780555321e-01
	2.100000000000001e+00
	-1.537053976689080e-01

 22	2.200000000000001e+00
	9.438857316832591e-01
	2.200000000000001e+00
	-1.538476537106988e-01

 23	2.300000000000001e+00
	9.439710853109859e-01
	2.300000000000001e+00
	-1.539899097524930e-01

 24	2.400000000000001e+00
	9.440564389386062e-01
	2.400000000000001e+00
	-1.541321657941719e-01

 25	2.500000000000001e+00
	9.441417925662817e-01
	2.500000000000001e+00
	-1.542744218359182e-01

 26	2.600000000000001e+00
	9.442271461941174e-01
	2.600000000000001e+00
	-1.544166778778617e-01

 27	2.700000000000001e+00
	9.443124998218492e-01
	2.700000000000001e+00
	-1.545589339196844e-01

 28	2.800000000000001e+00
	9.443978534495786e-01
	2.800000000000001e+00
	-1.547011899615178e-01

 29	2.900000000000001e+00
	9.444832070773792e-01
	2.900000000000001e+00
	-1.548434460034329e-01

 30	3.000000000000001e+00
	9.445685607052225e-01
	3.000000000000001e+00
	-1.549857020454084e-01

 31	3.100000000000001e+00
	9.446539143328936e-01
	3.100000000000001e+00
	-1.551279580871885e-01

 32	3.200000000000002e+00
	9.447392679607333e-01
	3.200000000000002e+00
	-1.552702141291675e-01

 33	3.300000000000002e+00
	9.448246215885782e-01
	3.300000000000002e+00
	-1.554124701711661e-01

 34	3.400000000000002e+00
	9.449099752165041e-01
	3.400000000000002e+00
	-1.555547262132588e-01

 35	3.500000000000002e+00
	9.449953288442097e-01
	3.500000000000002e+00
	-1.556969822550993e-01

 36	3.600000000000002e+00
	9.450806824721176e-01
	3.600000000000002e+00
	-1.558392382971849e-01

 37	3.700000000000002e+00
	9.451660361000076e-01
	3.700000000000002e+00
	-1.559814943392546e-01

 38	3.800000000000002e+00
	9.452513897278185e-01
	3.800000000000002e+00
	-1.561237503812389e-01

 39	3.900000000000002e+00
	9.453367433557831e-01
	3.900000000000002e+00
	-1.562660064234151e-01

 40	4.000000000000002e+00
	9.454220969836270e-01
	4.000000000000002e+00
	-1.564082624654475e-01

